 ****** HSPICE -- Q-2020.03-SP2-2 linux64 (Nov  1 2020) ******                  
  Copyright (c) 1986 - 2023 by Synopsys, Inc. All Rights Reserved.              
  This software and the associated documentation are proprietary
  to Synopsys, Inc. This software may only be used in accordance
  with the terms and conditions of a written license agreement with
  Synopsys, Inc. All other use, reproduction, or distribution of
  this software is strictly prohibited.
  Input File: adder_tree_testbed.sp                                             
  Command line options: /RAID2/cad/synopsys/hspice/2020.03-sp2-2/hspice/linux64/hspice -i adder_tree_testbed.sp -o adder_tree_testbed.lis
  Start time: Mon Jan 16 13:57:27 2023
 lic:  
 lic: FLEXlm: SDK_12.6 
 lic: USER:   DIC153               HOSTNAME: ee03 
 lic: HOSTID: a036bc2499a1         PID:      4151342 
 lic: Using FLEXlm license file: 
 lic: 26585@lshc 
 lic: Checkout 1 hspice 
 lic: License/Maintenance for hspice will expire on 14-may-2025/2022.06 
 lic: 147(in_use)/600(total) FLOATING license(s) on SERVER 26585@lshc 
 lic:   
  **warning** (adder_tree_testbed.sp:85) measure result pwr redefined, ignored the previous.
  **warning** Global net name "vdd" in subckt pin list. The pin will be connected to the local net. Recommend to not use global net names in subckt pin lists.
1****** HSPICE -- Q-2020.03-SP2-2 linux64 (Nov  1 2020) ******                  
 ******  
 *****************************

 ****** circuit name directory
 circuit number to circuit name directory
   number circuitname                     definition         multiplier
        0 main circuit
  **info** (adder_tree_testbed.sp:23) DC voltage reset to initial transient source value in source 0:vclk. new dc=0.0000D+00
             
 Summary of Linear Res Distribution Info
 ---------------------------------------
 |Range          |Total     |Percent(%)|
 |---------------+----------+----------|
 |0e+00  ~  1e-05|698       |1.0832    |
 |1e-02  ~  1e-01|5290      |8.2097    |
 |1e-01  ~  1e+00|9390      |14.5726   |
 |1e+00  ~  1e+03|49058     |76.1345   |
 ---------------------------------------
              
             
 Summary of Linear Cap Distribution Info
 ---------------------------------------
 |Range          |Total     |Percent(%)|
 |---------------+----------+----------|
 |1e-20  ~  1e-19|1135      |1.3410    |
 |1e-19  ~  1e-18|25508     |30.1367   |
 |1e-18  ~  1e-17|43305     |51.1631   |
 |1e-17  ~  1e-16|14685     |17.3497   |
 |1e-15  ~  1e-14|8         |0.0095    |
 ---------------------------------------
              
             
 Summary of Detailed RC Type Statistics
 -------------------------
 |Element Type|Number    |
 |------------+----------|
 |Constant Res|64436     |
 |            |          |
 |Constant Cap|84641     |
 -------------------------
              
  
  **warning** associated with encrypted blocks weresuppressed due to encrypted content
             
 Warning:'No DC path nodes' occurs 3011 times
 No DC path from the following nodes,connected with gdcpath:
      
 *****************************************************************
 ******  option summary
 ******
 runlvl  = 3         bypass  = 2.0000    
  Opening plot unit= 15
 file=adder_tree_testbed.pa0

 ******  
 *****************************

 ****** operating point information tnom=  25.000 temp=  25.000 ******
 ****** operating point status is all       simulation time is     0.     
       node    =voltage         node    =voltage         node    =voltage

 +   0:a[0]    =   0.         0:a[100]  =   0.         0:a[101]  =   0.     
 +   0:a[102]  =   0.         0:a[103]  =   0.         0:a[104]  =   0.     
 +   0:a[105]  =   0.         0:a[106]  =   0.         0:a[107]  =   0.     
 +   0:a[108]  =   0.         0:a[109]  =   0.         0:a[10]   =   0.     
 +   0:a[110]  =   0.         0:a[111]  =   0.         0:a[112]  =   0.     
 +   0:a[113]  =   0.         0:a[114]  =   0.         0:a[115]  =   0.     
 +   0:a[116]  =   0.         0:a[117]  =   0.         0:a[118]  =   0.     
 +   0:a[119]  =   0.         0:a[11]   =   0.         0:a[120]  =   0.     
 +   0:a[121]  =   0.         0:a[122]  =   0.         0:a[123]  =   0.     
 +   0:a[124]  =   0.         0:a[125]  =   0.         0:a[126]  =   0.     
 +   0:a[127]  =   0.         0:a[12]   =   0.         0:a[13]   =   0.     
 +   0:a[14]   =   0.         0:a[15]   =   0.         0:a[16]   =   0.     
 +   0:a[17]   =   0.         0:a[18]   =   0.         0:a[19]   =   0.     
 +   0:a[1]    =   0.         0:a[20]   =   0.         0:a[21]   =   0.     
 +   0:a[22]   =   0.         0:a[23]   =   0.         0:a[24]   =   0.     
 +   0:a[25]   =   0.         0:a[26]   =   0.         0:a[27]   =   0.     
 +   0:a[28]   =   0.         0:a[29]   =   0.         0:a[2]    =   0.     
 +   0:a[30]   =   0.         0:a[31]   =   0.         0:a[32]   =   0.     
 +   0:a[33]   =   0.         0:a[34]   =   0.         0:a[35]   =   0.     
 +   0:a[36]   =   0.         0:a[37]   =   0.         0:a[38]   =   0.     
 +   0:a[39]   =   0.         0:a[3]    =   0.         0:a[40]   =   0.     
 +   0:a[41]   =   0.         0:a[42]   =   0.         0:a[43]   =   0.     
 +   0:a[44]   =   0.         0:a[45]   =   0.         0:a[46]   =   0.     
 +   0:a[47]   =   0.         0:a[48]   =   0.         0:a[49]   =   0.     
 +   0:a[4]    =   0.         0:a[50]   =   0.         0:a[51]   =   0.     
 +   0:a[52]   =   0.         0:a[53]   =   0.         0:a[54]   =   0.     
 +   0:a[55]   =   0.         0:a[56]   =   0.         0:a[57]   =   0.     
 +   0:a[58]   =   0.         0:a[59]   =   0.         0:a[5]    =   0.     
 +   0:a[60]   =   0.         0:a[61]   =   0.         0:a[62]   =   0.     
 +   0:a[63]   =   0.         0:a[64]   =   0.         0:a[65]   =   0.     
 +   0:a[66]   =   0.         0:a[67]   =   0.         0:a[68]   =   0.     
 +   0:a[69]   =   0.         0:a[6]    =   0.         0:a[70]   =   0.     
 +   0:a[71]   =   0.         0:a[72]   =   0.         0:a[73]   =   0.     
 +   0:a[74]   =   0.         0:a[75]   =   0.         0:a[76]   =   0.     
 +   0:a[77]   =   0.         0:a[78]   =   0.         0:a[79]   =   0.     
 +   0:a[7]    =   0.         0:a[80]   =   0.         0:a[81]   =   0.     
 +   0:a[82]   =   0.         0:a[83]   =   0.         0:a[84]   =   0.     
 +   0:a[85]   =   0.         0:a[86]   =   0.         0:a[87]   =   0.     
 +   0:a[88]   =   0.         0:a[89]   =   0.         0:a[8]    =   0.     
 +   0:a[90]   =   0.         0:a[91]   =   0.         0:a[92]   =   0.     
 +   0:a[93]   =   0.         0:a[94]   =   0.         0:a[95]   =   0.     
 +   0:a[96]   =   0.         0:a[97]   =   0.         0:a[98]   =   0.     
 +   0:a[99]   =   0.         0:a[9]    =   0.         0:clk     =   0.     
 +   0:output[0= 699.9998m    0:output[1= 699.9998m    0:output[2= 699.9998m
 +   0:output[3= 699.9998m    0:output[4= 699.9998m    0:output[5= 699.9998m
 +   0:output[6= 144.2961n    0:output[7= 699.9998m    0:vdd     = 700.0000m
 +   0:vss     =   0.     


 maximum nodal capacitance=   3.787E-13         on node     0:vss             

    nodal  capacitance table 

       node    =    cap         node    =    cap         node    =    cap

 +   0:a[0]    =   0.         0:a[100]  =   0.         0:a[101]  =   0.     
 +   0:a[102]  =   0.         0:a[103]  =   0.         0:a[104]  =   0.     
 +   0:a[105]  =   0.         0:a[106]  =   0.         0:a[107]  =   4.3464a
 +   0:a[108]  =   0.         0:a[109]  =   0.         0:a[10]   =   0.     
 +   0:a[110]  =   0.         0:a[111]  =   0.         0:a[112]  =   0.     
 +   0:a[113]  =   0.         0:a[114]  =   0.         0:a[115]  =   0.     
 +   0:a[116]  =   0.         0:a[117]  =   0.         0:a[118]  =   0.     
 +   0:a[119]  =   0.         0:a[11]   =   0.         0:a[120]  =   0.     
 +   0:a[121]  =   0.         0:a[122]  =   0.         0:a[123]  =   0.     
 +   0:a[124]  =   0.         0:a[125]  =   0.         0:a[126]  =   0.     
 +   0:a[127]  =   0.         0:a[12]   =   0.         0:a[13]   =   0.     
 +   0:a[14]   =   0.         0:a[15]   =   0.         0:a[16]   =   0.     
 +   0:a[17]   =   0.         0:a[18]   =   0.         0:a[19]   =   0.     
 +   0:a[1]    =   0.         0:a[20]   =   0.         0:a[21]   =   0.     
 +   0:a[22]   =   0.         0:a[23]   =   0.         0:a[24]   =   0.     
 +   0:a[25]   =   0.         0:a[26]   =   0.         0:a[27]   =   0.     
 +   0:a[28]   =   0.         0:a[29]   =   0.         0:a[2]    =   0.     
 +   0:a[30]   =   0.         0:a[31]   =   0.         0:a[32]   =   0.     
 +   0:a[33]   =   0.         0:a[34]   =   0.         0:a[35]   =   0.     
 +   0:a[36]   =   0.         0:a[37]   =   0.         0:a[38]   =   0.     
 +   0:a[39]   =   0.         0:a[3]    =   0.         0:a[40]   =   0.     
 +   0:a[41]   =   0.         0:a[42]   =   0.         0:a[43]   =   4.3464a
 +   0:a[44]   =   0.         0:a[45]   =   0.         0:a[46]   =   0.     
 +   0:a[47]   =   0.         0:a[48]   =   0.         0:a[49]   =   0.     
 +   0:a[4]    =   0.         0:a[50]   =   0.         0:a[51]   =   0.     
 +   0:a[52]   =   0.         0:a[53]   =   0.         0:a[54]   =   0.     
 +   0:a[55]   =   0.         0:a[56]   =   0.         0:a[57]   =   0.     
 +   0:a[58]   =   0.         0:a[59]   =   4.3464a    0:a[5]    =   0.     
 +   0:a[60]   =   0.         0:a[61]   =   0.         0:a[62]   =   0.     
 +   0:a[63]   =   0.         0:a[64]   =   0.         0:a[65]   =   0.     
 +   0:a[66]   =   0.         0:a[67]   =   0.         0:a[68]   =   0.     
 +   0:a[69]   =   0.         0:a[6]    =   0.         0:a[70]   =   0.     
 +   0:a[71]   =   0.         0:a[72]   =   0.         0:a[73]   =   0.     
 +   0:a[74]   =   0.         0:a[75]   =   4.3464a    0:a[76]   =   0.     
 +   0:a[77]   =   0.         0:a[78]   =   0.         0:a[79]   =   0.     
 +   0:a[7]    =   0.         0:a[80]   =   0.         0:a[81]   =   0.     
 +   0:a[82]   =   0.         0:a[83]   =   0.         0:a[84]   =   0.     
 +   0:a[85]   =   0.         0:a[86]   =   0.         0:a[87]   =   0.     
 +   0:a[88]   =   0.         0:a[89]   =   0.         0:a[8]    =   0.     
 +   0:a[90]   =   0.         0:a[91]   =   0.         0:a[92]   =   0.     
 +   0:a[93]   =   0.         0:a[94]   =   0.         0:a[95]   =   0.     
 +   0:a[96]   =   0.         0:a[97]   =   0.         0:a[98]   =   0.     
 +   0:a[99]   =   0.         0:a[9]    =   0.         0:clk     =   0.     
 +   0:output[0=   3.0000f    0:output[1=   3.0000f    0:output[2=   3.0000f
 +   0:output[3=   3.0000f    0:output[4=   3.0000f    0:output[5=   3.0000f
 +   0:output[6=   3.0000f    0:output[7=   3.0000f    0:vdd     =  87.7416f
 +   0:vss     = 378.6874f

 

 **** voltage sources

 subckt                                            
 element     0:vclk        0:vvdd        0:vvss    
  volts         0.          700.0000m       0.     
  current      28.7715p     -80.2292n      79.8757n
  power         0.           56.1605n       0.     

     total voltage source power dissipation=   56.1605n       watts


 ******
 *****************************

 ****** transient analysis tnom=  25.000 temp=  25.000 ******
 tr=  68.0601p  targ=   1.5931n   trig=   1.5250n
 tf=  68.3666p  targ=   1.9934n   trig=   1.9250n
 critical_delay=  68.2133p
 pwr= 187.9602u  from=   0.             to=  35.0000n

          ***** job concluded
 ******  
 *****************************

 ****** job statistics summary tnom=  25.000 temp=  25.000 ******
  
 ******  Machine Information  ******
 CPU:
 model name	: 12th Gen Intel(R) Core(TM) i7-12700
 cpu MHz	: 2100.000
  
 OS:
 Linux version 4.18.0-408.el8.x86_64 (mockbuild@kbuilder.bsys.centos.org) (gcc version 8.5.0 20210514 (Red Hat 8.5.0-14) (GCC)) #1 SMP Mon Jul 18 17:42:52 UTC 2022


  ******  HSPICE Threads Information  ******

  Command Line Threads Count :     1
  Available CPU Count        :    20
  Actual Threads Count       :     1


  ******  Circuit Statistics  ******
  # nodes       =   68804 # elements   =  154570
  # resistors   =   64436 # capacitors =   84641 # inductors   =       0
  # mutual_inds =       0 # vccs       =       0 # vcvs        =       0
  # cccs        =       0 # ccvs       =       0 # volt_srcs   =       3
  # curr_srcs   =       0 # diodes     =       0 # bjts        =       0
  # jfets       =       0 # mosfets    =    5362 # U elements  =       0
  # T elements  =       0 # W elements =       0 # B elements  =       0
  # S elements  =       0 # P elements =       0 # va device   =       0
  # vector_srcs =     128 # N elements =       0


  ******  Runtime Statistics (seconds)  ******

  analysis           time    # points   tot. iter  conv.iter
  op point           0.94           1          25
  transient        111.92        3501       17431        4635 rev=       163
  readin             0.12
  errchk             0.33
  setup              0.43
  output             0.00


           peak memory used        703.54 megabytes
           total cpu time          113.80 seconds
           total elapsed time      113.95 seconds
           job started at     13:57:27 01/16/2023
           job ended   at     13:59:21 01/16/2023
           job total runtime       113.95 seconds


 lic: Release hspice token(s) 
 lic: total license checkout elapse time:        0.13(s)
